
**** 03/13/18 09:18:08 *********** Evaluation PSpice (Nov 1999) **************

 * W:\TCO\pract_5\ejer2.sch


 ****     CIRCUIT DESCRIPTION


******************************************************************************




* Schematics Version 9.1 - Web Update 1
* Tue Mar 13 09:18:05 2018



** Analysis setup **
.tran 1n 100n
.LIB "W:\TCO\pract_5\ejer2.lib"


* From [PSPICE NETLIST] section of pspiceev.ini:
.lib "nom.lib"

.INC "ejer2.net"

**** INCLUDING ejer2.net ****
* Schematics Netlist *



M_M2         $N_0002 $N_0001 0 0 MbreakN           
V_VDD         $N_0003 0 5V
R_R1         $N_0002 $N_0003  90k  
M_M1         $N_0002 $N_0004 0 0 MbreakN-X  
+ L=1u  
+ W=2u         
V_Va         $N_0004 0  
+PULSE 0V 5V 10n 2n 2n 40n 100n
V_Vb         $N_0001 0  
+PULSE 0V 5V 30n 22n 22n 60n 120n

**** RESUMING ejer2.cir ****
.INC "ejer2.als"



**** INCLUDING ejer2.als ****
* Schematics Aliases *

.ALIASES
M_M2            M2(d=$N_0002 g=$N_0001 s=0 s=0 )
V_VDD           VDD(+=$N_0003 -=0 )
R_R1            R1(1=$N_0002 2=$N_0003 )
M_M1            M1(d=$N_0002 g=$N_0004 s=0 s=0 )
V_Va            Va(+=$N_0004 -=0 )
V_Vb            Vb(+=$N_0001 -=0 )
.ENDALIASES


**** RESUMING ejer2.cir ****
.probe


.END

**** 03/13/18 09:18:08 *********** Evaluation PSpice (Nov 1999) **************

 * W:\TCO\pract_5\ejer2.sch


 ****     MOSFET MODEL PARAMETERS


******************************************************************************




               MbreakN-X       MbreakN         
               NMOS            NMOS            
       LEVEL    1               1            
           L  100.000000E-06  100.000000E-06 
           W  100.000000E-06  100.000000E-06 
         VTO    1               0            
          KP   50.000000E-06   20.000000E-06 
       GAMMA    0               0            
         PHI     .6              .6          
      LAMBDA    0               0            
          IS   10.000000E-15   10.000000E-15 
          JS    0               0            
          PB     .8              .8          
        PBSW     .8              .8          
          CJ    0               0            
        CJSW    0               0            
        CGSO    0               0            
        CGDO    0               0            
        CGBO    0               0            
         TOX    0               0            
          XJ    0               0            
       UCRIT   10.000000E+03   10.000000E+03 
      DIOMOD    1               1            
         VFB    0               0            
        LETA    0               0            
        WETA    0               0            
          U0    0               0            
        TEMP    0               0            
         VDD    0               0            
       XPART    0               0            


**** 03/13/18 09:18:08 *********** Evaluation PSpice (Nov 1999) **************

 * W:\TCO\pract_5\ejer2.sch


 ****     INITIAL TRANSIENT SOLUTION       TEMPERATURE =   27.000 DEG C


******************************************************************************



 NODE   VOLTAGE     NODE   VOLTAGE     NODE   VOLTAGE     NODE   VOLTAGE


($N_0001)    0.0000                   ($N_0002)    5.0000                       

($N_0003)    5.0000                   ($N_0004)    0.0000                   




    VOLTAGE SOURCE CURRENTS
    NAME         CURRENT

    V_VDD       -1.002E-11
    V_Va         0.000E+00
    V_Vb         0.000E+00

    TOTAL POWER DISSIPATION   5.01E-11  WATTS



          JOB CONCLUDED

          TOTAL JOB TIME             .05
