
**** 03/13/18 09:03:38 *********** Evaluation PSpice (Nov 1999) **************

 * W:\TCO\pract_5\ejer1.sch


 ****     CIRCUIT DESCRIPTION


******************************************************************************




* Schematics Version 9.1 - Web Update 1
* Tue Mar 13 09:03:34 2018



** Analysis setup **
.tran 1n 120n
.LIB "W:\TCO\pract_5\ejer1.lib"


* From [PSPICE NETLIST] section of pspiceev.ini:
.lib "nom.lib"

.INC "ejer1.net"

**** INCLUDING ejer1.net ****
* Schematics Netlist *



M_M1         $N_0002 $N_0001 0 0 MbreakN-X  
+ L=1u  
+ W=2u         
V_V5         $N_0001 0  
+PULSE 0V 5V 10n 2n 2n 40n 100n
V_VDD         $N_0003 0 5V
C_C1         0 $N_0002  0.1pF  
R_RD         $N_0002 $N_0003  90k  

**** RESUMING ejer1.cir ****
.INC "ejer1.als"



**** INCLUDING ejer1.als ****
* Schematics Aliases *

.ALIASES
M_M1            M1(d=$N_0002 g=$N_0001 s=0 s=0 )
V_V5            V5(+=$N_0001 -=0 )
V_VDD           VDD(+=$N_0003 -=0 )
C_C1            C1(1=0 2=$N_0002 )
R_RD            RD(1=$N_0002 2=$N_0003 )
.ENDALIASES


**** RESUMING ejer1.cir ****
.probe


.END

**** 03/13/18 09:03:38 *********** Evaluation PSpice (Nov 1999) **************

 * W:\TCO\pract_5\ejer1.sch


 ****     MOSFET MODEL PARAMETERS


******************************************************************************




               MbreakN-X       
               NMOS            
       LEVEL    1            
           L  100.000000E-06 
           W  100.000000E-06 
         VTO    1            
          KP   50.000000E-06 
       GAMMA    0            
         PHI     .6          
      LAMBDA    0            
          IS   10.000000E-15 
          JS    0            
          PB     .8          
        PBSW     .8          
          CJ    0            
        CJSW    0            
        CGSO    0            
        CGDO    0            
        CGBO    0            
         TOX    0            
          XJ    0            
       UCRIT   10.000000E+03 
      DIOMOD    1            
         VFB    0            
        LETA    0            
        WETA    0            
          U0    0            
        TEMP    0            
         VDD    0            
       XPART    0            


**** 03/13/18 09:03:38 *********** Evaluation PSpice (Nov 1999) **************

 * W:\TCO\pract_5\ejer1.sch


 ****     INITIAL TRANSIENT SOLUTION       TEMPERATURE =   27.000 DEG C


******************************************************************************



 NODE   VOLTAGE     NODE   VOLTAGE     NODE   VOLTAGE     NODE   VOLTAGE


($N_0001)    0.0000                   ($N_0002)    5.0000                       

($N_0003)    5.0000                   




    VOLTAGE SOURCE CURRENTS
    NAME         CURRENT

    V_V5         0.000E+00
    V_VDD       -5.010E-12

    TOTAL POWER DISSIPATION   2.51E-11  WATTS



          JOB CONCLUDED

          TOTAL JOB TIME             .05
